;$FILEVERSION=1.1
;$STARTTIME=43794.8411897801
;
;   \\Mac\Home\Desktop\Impulse\Peak\data_test.trc
;
;   Start time: 25/11/2019 20:11:18.797.0
;   Generated by PCAN-View v4.2.4.564
;
;   Message Number
;   |         Time Offset (ms)
;   |         |        Type
;   |         |        |        ID (hex)
;   |         |        |        |     Data Length
;   |         |        |        |     |   Data Bytes (hex) ...
;   |         |        |        |     |   |
;---+--   ----+----  --+--  ----+---  +  -+ -- -- -- -- -- -- --
     1)       244.4  Rx         047A  8  00 00 00 05 00 00 00 00 
     2)       246.8  Rx         047B  8  00 01 ED 00 00 00 00 00 
     3)       249.4  Rx         047C  8  00 01 00 03 64 00 99 00 
     4)       251.8  Rx         047D  8  13 88 01 00 17 12 0D 0C 
     5)       254.3  Rx         0400  8  02 10 0E 10 0B 10 09 17 
     6)       256.9  Rx         0401  8  02 01 00 13 88 20 00 13 
     7)       259.3  Rx         0402  8  02 20 00 20 00 16 16 00 
     8)      1245.6  Rx         047A  8  00 00 00 05 00 00 00 00 
     9)      1248.2  Rx         047B  8  00 01 ED 00 00 00 00 00 
    10)      1250.6  Rx         047C  8  00 01 00 03 64 00 9A 00 
    11)      1253.1  Rx         047D  8  13 88 01 00 17 12 0D 0C 
    12)      1255.6  Rx         0400  8  02 10 0E 10 0B 10 09 16 
    13)      1258.1  Rx         0401  8  02 01 03 13 88 20 00 12 
    14)      1260.7  Rx         0402  8  02 20 00 20 00 16 15 00 
    15)      2246.9  Rx         047A  8  00 00 00 05 00 00 00 00 
    16)      2249.4  Rx         047B  8  00 01 ED 00 00 00 00 00 
    17)      2251.9  Rx         047C  8  00 01 00 03 64 00 9B 00 
    18)      2254.4  Rx         047D  8  13 88 01 03 17 12 0D 0C 
    19)      2256.9  Rx         0400  8  01 10 0D 10 09 10 0C 17 
    20)      2259.4  Rx         0401  8  01 10 0C 10 0A 10 0C 13 
    21)      2261.9  Rx         0402  8  01 10 0A 20 00 16 16 00 
    22)      3248.3  Rx         047A  8  00 00 00 05 00 00 00 00 
    23)      3250.8  Rx         047B  8  00 01 ED 00 00 00 00 00 
    24)      3253.3  Rx         047C  8  00 01 00 03 64 00 9C 00 
    25)      3255.7  Rx         047D  8  13 88 01 03 17 12 0D 0C 
    26)      3258.2  Rx         0400  8  02 10 0E 10 0B 10 09 17 
    27)      3260.8  Rx         0401  8  02 01 01 13 88 20 00 13 
    28)      3263.3  Rx         0402  8  02 20 00 20 00 16 16 00 
    29)      4249.4  Rx         047A  8  00 00 00 05 00 00 00 00 
    30)      4251.9  Rx         047B  8  00 01 ED 00 00 00 00 00 
    31)      4254.4  Rx         047C  8  00 01 00 03 64 00 9D 00 
    32)      4256.9  Rx         047D  8  13 88 01 01 17 12 0D 0C 
    33)      4259.4  Rx         0400  8  02 10 0E 10 0B 10 09 17 
    34)      4261.9  Rx         0401  8  02 01 01 13 88 20 00 13 
    35)      4264.4  Rx         0402  8  02 20 00 20 00 16 16 00 
    36)      5250.7  Rx         047A  8  00 00 00 05 00 00 00 00 
    37)      5253.2  Rx         047B  8  00 01 ED 00 00 00 00 00 
    38)      5255.7  Rx         047C  8  00 01 00 03 64 00 9E 00 
    39)      5258.2  Rx         047D  8  13 88 01 01 17 12 0D 0C 
    40)      5260.7  Rx         0400  8  02 10 0E 10 0B 10 09 16 
    41)      5263.2  Rx         0401  8  02 01 01 13 88 20 00 12 
    42)      5265.7  Rx         0402  8  02 20 00 20 00 16 16 00 
    43)      6252.1  Rx         047A  8  00 00 00 05 00 00 00 00 
    44)      6254.6  Rx         047B  8  00 01 ED 00 00 00 00 00 
    45)      6257.1  Rx         047C  8  00 01 00 03 64 00 9F 00 
    46)      6259.6  Rx         047D  8  13 88 01 01 17 12 0D 0C 
    47)      6262.0  Rx         0400  8  02 10 0E 10 0B 10 09 17 
    48)      6264.6  Rx         0401  8  02 01 00 13 88 20 00 13 
    49)      6267.1  Rx         0402  8  02 20 00 20 00 16 16 00 
    50)      7253.4  Rx         047A  8  00 00 00 05 00 00 00 00 
    51)      7255.9  Rx         047B  8  00 01 ED 00 00 00 00 00 
    52)      7258.4  Rx         047C  8  00 01 00 03 64 00 A0 00 
    53)      7260.8  Rx         047D  8  13 88 01 00 17 12 0D 0C 
    54)      7263.4  Rx         0400  8  01 10 0D 10 09 10 0C 17 
    55)      7265.9  Rx         0401  8  01 10 0C 10 0A 10 0C 13 
    56)      7268.4  Rx         0402  8  01 10 0A 20 00 16 15 00 
